Title: ** sch_path: /home/designer/unic-cass-aug25/binarytothermo/tb_circuit_stdcells_tran.sch
Date: Sat Dec 20 23:51:17  2025
Command: ngspice-44.2, Build Tue Dec  9 03:02:56 UTC 2025
Plotname: Transient Analysis
Flags: real
No. Variables: 4
No. Points: 3764
Variables:
	0	time	time
	1	v(vo_s3t)	voltage
	2	v(vs3)	voltage
	3	v(vs4)	voltage
Values:
 0	0.000000000000000e+00
	2.415715858165990e-07
	0.000000000000000e+00
	0.000000000000000e+00

 1	2.000000000000000e-15
	2.415715858539516e-07
	0.000000000000000e+00
	0.000000000000000e+00

 2	4.000000000000000e-15
	2.415715860074746e-07
	0.000000000000000e+00
	0.000000000000000e+00

 3	8.000000000000001e-15
	2.415715859380857e-07
	0.000000000000000e+00
	0.000000000000000e+00

 4	1.600000000000000e-14
	2.415715863336027e-07
	0.000000000000000e+00
	0.000000000000000e+00

 5	3.200000000000000e-14
	2.415715856518563e-07
	0.000000000000000e+00
	0.000000000000000e+00

 6	6.400000000000000e-14
	2.415715848833738e-07
	0.000000000000000e+00
	0.000000000000000e+00

 7	1.280000000000000e-13
	2.415715839830523e-07
	0.000000000000000e+00
	0.000000000000000e+00

 8	2.560000000000000e-13
	2.415715831365073e-07
	0.000000000000000e+00
	0.000000000000000e+00

 9	4.560000000000001e-13
	2.415715809125918e-07
	0.000000000000000e+00
	0.000000000000000e+00

 10	6.560000000000000e-13
	2.415715789939876e-07
	0.000000000000000e+00
	0.000000000000000e+00

 11	8.560000000000000e-13
	2.415715767666027e-07
	0.000000000000000e+00
	0.000000000000000e+00

 12	1.056000000000000e-12
	2.415715747786096e-07
	0.000000000000000e+00
	0.000000000000000e+00

 13	1.256000000000000e-12
	2.415715723881606e-07
	0.000000000000000e+00
	0.000000000000000e+00

 14	1.456000000000000e-12
	2.415715697791365e-07
	0.000000000000000e+00
	0.000000000000000e+00

 15	1.656000000000000e-12
	2.415715674268515e-07
	0.000000000000000e+00
	0.000000000000000e+00

 16	1.856000000000000e-12
	2.415715656192696e-07
	0.000000000000000e+00
	0.000000000000000e+00

 17	2.056000000000000e-12
	2.415715641586325e-07
	0.000000000000000e+00
	0.000000000000000e+00

 18	2.256000000000000e-12
	2.415715628610593e-07
	0.000000000000000e+00
	0.000000000000000e+00

 19	2.456000000000000e-12
	2.415715614906278e-07
	0.000000000000000e+00
	0.000000000000000e+00

 20	2.656000000000000e-12
	2.415715605295909e-07
	0.000000000000000e+00
	0.000000000000000e+00

 21	2.856000000000000e-12
	2.415715593603873e-07
	0.000000000000000e+00
	0.000000000000000e+00

 22	3.055999999999999e-12
	2.415715584166978e-07
	0.000000000000000e+00
	0.000000000000000e+00

 23	3.255999999999999e-12
	2.415715578442390e-07
	0.000000000000000e+00
	0.000000000000000e+00

 24	3.455999999999999e-12
	2.415715563940102e-07
	0.000000000000000e+00
	0.000000000000000e+00

 25	3.656000000000000e-12
	2.415715550409259e-07
	0.000000000000000e+00
	0.000000000000000e+00

 26	3.856000000000000e-12
	2.415715543262198e-07
	0.000000000000000e+00
	0.000000000000000e+00

 27	4.056000000000000e-12
	2.415715535039609e-07
	0.000000000000000e+00
	0.000000000000000e+00

 28	4.256000000000000e-12
	2.415715528170104e-07
	0.000000000000000e+00
	0.000000000000000e+00

 29	4.456000000000000e-12
	2.415715520190376e-07
	0.000000000000000e+00
	0.000000000000000e+00

 30	4.656000000000000e-12
	2.415715509643257e-07
	0.000000000000000e+00
	0.000000000000000e+00

 31	4.856000000000000e-12
	2.415715499790028e-07
	0.000000000000000e+00
	0.000000000000000e+00

 32	5.055999999999999e-12
	2.415715496320581e-07
	0.000000000000000e+00
	0.000000000000000e+00

 33	5.255999999999999e-12
	2.415715491081716e-07
	0.000000000000000e+00
	0.000000000000000e+00

 34	5.455999999999999e-12
	2.415715485946934e-07
	0.000000000000000e+00
	0.000000000000000e+00

 35	5.655999999999999e-12
	2.415715480499903e-07
	0.000000000000000e+00
	0.000000000000000e+00

 36	5.855999999999999e-12
	2.415715472832425e-07
	0.000000000000000e+00
	0.000000000000000e+00

 37	6.055999999999999e-12
	2.415715465303725e-07
	0.000000000000000e+00
	0.000000000000000e+00

 38	6.255999999999999e-12
	2.415715456977052e-07
	0.000000000000000e+00
	0.000000000000000e+00

 39	6.455999999999999e-12
	2.415715455519885e-07
	0.000000000000000e+00
	0.000000000000000e+00

 40	6.655999999999999e-12
	2.415715452327993e-07
	0.000000000000000e+00
	0.000000000000000e+00

 41	6.855999999999999e-12
	2.415715444660516e-07
	0.000000000000000e+00
	0.000000000000000e+00

 42	7.055999999999999e-12
	2.415715440323707e-07
	0.000000000000000e+00
	0.000000000000000e+00

 43	7.255999999999999e-12
	2.415715431997034e-07
	0.000000000000000e+00
	0.000000000000000e+00

 44	7.455999999999999e-12
	2.415715433003174e-07
	0.000000000000000e+00
	0.000000000000000e+00

 45	7.655999999999999e-12
	2.415715432031729e-07
	0.000000000000000e+00
	0.000000000000000e+00

 46	7.855999999999999e-12
	2.415715428111254e-07
	0.000000000000000e+00
	0.000000000000000e+00

 47	8.055999999999999e-12
	2.415715424537723e-07
	0.000000000000000e+00
	0.000000000000000e+00

 48	8.255999999999999e-12
	2.415715426723475e-07
	0.000000000000000e+00
	0.000000000000000e+00

 49	8.455999999999999e-12
	2.415715427521448e-07
	0.000000000000000e+00
	0.000000000000000e+00

 50	8.655999999999999e-12
	2.415715428701060e-07
	0.000000000000000e+00
	0.000000000000000e+00

 51	8.855999999999999e-12
	2.415715424919362e-07
	0.000000000000000e+00
	0.000000000000000e+00

 52	9.055999999999999e-12
	2.415715424156084e-07
	0.000000000000000e+00
	0.000000000000000e+00

 53	9.255999999999999e-12
	2.415715424468334e-07
	0.000000000000000e+00
	0.000000000000000e+00

 54	9.455999999999998e-12
	2.415715425856113e-07
	0.000000000000000e+00
	0.000000000000000e+00

 55	9.655999999999998e-12
	2.415715422039721e-07
	0.000000000000000e+00
	0.000000000000000e+00

 56	9.855999999999998e-12
	2.415715425301002e-07
	0.000000000000000e+00
	0.000000000000000e+00

 57	1.005600000000000e-11
	2.415715420998887e-07
	0.000000000000000e+00
	0.000000000000000e+00

 58	1.025600000000000e-11
	2.415715416557995e-07
	0.000000000000000e+00
	0.000000000000000e+00

 59	1.045600000000000e-11
	2.415715412186492e-07
	0.000000000000000e+00
	0.000000000000000e+00

 60	1.065600000000000e-11
	2.415715411284436e-07
	0.000000000000000e+00
	0.000000000000000e+00

 61	1.085600000000000e-11
	2.415715406288432e-07
	0.000000000000000e+00
	0.000000000000000e+00

 62	1.105600000000000e-11
	2.415715396365814e-07
	0.000000000000000e+00
	0.000000000000000e+00

 63	1.125600000000000e-11
	2.415715392861673e-07
	0.000000000000000e+00
	0.000000000000000e+00

 64	1.145600000000000e-11
	2.415715391161644e-07
	0.000000000000000e+00
	0.000000000000000e+00

 65	1.165600000000000e-11
	2.415715387830975e-07
	0.000000000000000e+00
	0.000000000000000e+00

 66	1.185600000000000e-11
	2.415715385888084e-07
	0.000000000000000e+00
	0.000000000000000e+00

 67	1.205600000000000e-11
	2.415715388837114e-07
	0.000000000000000e+00
	0.000000000000000e+00

 68	1.225600000000000e-11
	2.415715393486173e-07
	0.000000000000000e+00
	0.000000000000000e+00

 69	1.245600000000000e-11
	2.415715395047424e-07
	0.000000000000000e+00
	0.000000000000000e+00

 70	1.265600000000000e-11
	2.415715395776008e-07
	0.000000000000000e+00
	0.000000000000000e+00

 71	1.285600000000000e-11
	2.415715396331120e-07
	0.000000000000000e+00
	0.000000000000000e+00

 72	1.305600000000000e-11
	2.415715395949480e-07
	0.000000000000000e+00
	0.000000000000000e+00

 73	1.325600000000000e-11
	2.415715398586260e-07
	0.000000000000000e+00
	0.000000000000000e+00

 74	1.345600000000000e-11
	2.415715397788287e-07
	0.000000000000000e+00
	0.000000000000000e+00

 75	1.365600000000000e-11
	2.415715402367957e-07
	0.000000000000000e+00
	0.000000000000000e+00

 76	1.385600000000000e-11
	2.415715408647656e-07
	0.000000000000000e+00
	0.000000000000000e+00

 77	1.405600000000000e-11
	2.415715414129382e-07
	0.000000000000000e+00
	0.000000000000000e+00

 78	1.425600000000000e-11
	2.415715424676501e-07
	0.000000000000000e+00
	0.000000000000000e+00

 79	1.445600000000000e-11
	2.415715437444066e-07
	0.000000000000000e+00
	0.000000000000000e+00

 80	1.465600000000000e-11
	2.415715441538013e-07
	0.000000000000000e+00
	0.000000000000000e+00

 81	1.485600000000000e-11
	2.415715448129963e-07
	0.000000000000000e+00
	0.000000000000000e+00

 82	1.505600000000000e-11
	2.415715453715772e-07
	0.000000000000000e+00
	0.000000000000000e+00

 83	1.525600000000000e-11
	2.415715455381107e-07
	0.000000000000000e+00
	0.000000000000000e+00

 84	1.545600000000000e-11
	2.415715459024026e-07
	0.000000000000000e+00
	0.000000000000000e+00

 85	1.565600000000000e-11
	2.415715461452639e-07
	0.000000000000000e+00
	0.000000000000000e+00

 86	1.585600000000000e-11
	2.415715469397672e-07
	0.000000000000000e+00
	0.000000000000000e+00

 87	1.605600000000000e-11
	2.415715480499903e-07
	0.000000000000000e+00
	0.000000000000000e+00

 88	1.625600000000000e-11
	2.415715488063297e-07
	0.000000000000000e+00
	0.000000000000000e+00

 89	1.645600000000000e-11
	2.415715493822579e-07
	0.000000000000000e+00
	0.000000000000000e+00

 90	1.665600000000000e-11
	2.415715507422811e-07
	0.000000000000000e+00
	0.000000000000000e+00

 91	1.685600000000000e-11
	2.415715512869843e-07
	0.000000000000000e+00
	0.000000000000000e+00

 92	1.705600000000000e-11
	2.415715517588291e-07
	0.000000000000000e+00
	0.000000000000000e+00

 93	1.725600000000000e-11
	2.415715526712936e-07
	0.000000000000000e+00
	0.000000000000000e+00

 94	1.745600000000000e-11
	2.415715545552033e-07
	0.000000000000000e+00
	0.000000000000000e+00

 95	1.765600000000000e-11
	2.415715551033759e-07
	0.000000000000000e+00
	0.000000000000000e+00

 96	1.785600000000000e-11
	2.415715562378851e-07
	0.000000000000000e+00
	0.000000000000000e+00

 97	1.805600000000000e-11
	2.415715573481081e-07
	0.000000000000000e+00
	0.000000000000000e+00

 98	1.825600000000000e-11
	2.415715577297473e-07
	0.000000000000000e+00
	0.000000000000000e+00

 99	1.845600000000000e-11
	2.415715588226230e-07
	0.000000000000000e+00
	0.000000000000000e+00

 100	1.865600000000000e-11
	2.415715599744794e-07
	0.000000000000000e+00
	0.000000000000000e+00

 101	1.885600000000000e-11
	2.415715612269498e-07
	0.000000000000000e+00
	0.000000000000000e+00

 102	1.905600000000000e-11
	2.415715620422698e-07
	0.000000000000000e+00
	0.000000000000000e+00

 103	1.925600000000000e-11
	2.415715625002368e-07
	0.000000000000000e+00
	0.000000000000000e+00

 104	1.945600000000000e-11
	2.415715634820903e-07
	0.000000000000000e+00
	0.000000000000000e+00

 105	1.965600000000000e-11
	2.415715640094462e-07
	0.000000000000000e+00
	0.000000000000000e+00

 106	1.985600000000000e-11
	2.415715645298633e-07
	0.000000000000000e+00
	0.000000000000000e+00

 107	2.005600000000000e-11
	2.415715655047779e-07
	0.000000000000000e+00
	0.000000000000000e+00

 108	2.025600000000000e-11
	2.415715663513229e-07
	0.000000000000000e+00
	0.000000000000000e+00

 109	2.045600000000000e-11
	2.415715666254092e-07
	0.000000000000000e+00
	0.000000000000000e+00

 110	2.065600000000000e-11
	2.415715674164431e-07
	0.000000000000000e+00
	0.000000000000000e+00

 111	2.085600000000000e-11
	2.415715676662433e-07
	0.000000000000000e+00
	0.000000000000000e+00

 112	2.105600000000000e-11
	2.415715681450270e-07
	0.000000000000000e+00
	0.000000000000000e+00

 113	2.125600000000000e-11
	2.415715685474829e-07
	0.000000000000000e+00
	0.000000000000000e+00

 114	2.145600000000000e-11
	2.415715690817777e-07
	0.000000000000000e+00
	0.000000000000000e+00

 115	2.165600000000000e-11
	2.415715691303499e-07
	0.000000000000000e+00
	0.000000000000000e+00

 116	2.185600000000000e-11
	2.415715701607757e-07
	0.000000000000000e+00
	0.000000000000000e+00

 117	2.205600000000000e-11
	2.415715711807931e-07
	0.000000000000000e+00
	0.000000000000000e+00

 118	2.225600000000000e-11
	2.415715718989686e-07
	0.000000000000000e+00
	0.000000000000000e+00

 119	2.245600000000000e-11
	2.415715723604051e-07
	0.000000000000000e+00
	0.000000000000000e+00

 120	2.265600000000000e-11
	2.415715724020384e-07
	0.000000000000000e+00
	0.000000000000000e+00

 121	2.285600000000000e-11
	2.415715733179724e-07
	0.000000000000000e+00
	0.000000000000000e+00

 122	2.305600000000000e-11
	2.415715740083924e-07
	0.000000000000000e+00
	0.000000000000000e+00

 123	2.325600000000000e-11
	2.415715744802371e-07
	0.000000000000000e+00
	0.000000000000000e+00

 124	2.345600000000000e-11
	2.415715747682012e-07
	0.000000000000000e+00
	0.000000000000000e+00

 125	2.365600000000000e-11
	2.415715754100489e-07
	0.000000000000000e+00
	0.000000000000000e+00

 126	2.385600000000000e-11
	2.415715753927017e-07
	0.000000000000000e+00
	0.000000000000000e+00

 127	2.405600000000000e-11
	2.415715753129044e-07
	0.000000000000000e+00
	0.000000000000000e+00

 128	2.425600000000000e-11
	2.415715747230984e-07
	0.000000000000000e+00
	0.000000000000000e+00

 129	2.445600000000000e-11
	2.415715747994263e-07
	0.000000000000000e+00
	0.000000000000000e+00

 130	2.465600000000000e-11
	2.415715747404457e-07
	0.000000000000000e+00
	0.000000000000000e+00

 131	2.485600000000000e-11
	2.415715748965708e-07
	0.000000000000000e+00
	0.000000000000000e+00

 132	2.505600000000000e-11
	2.415715746710567e-07
	0.000000000000000e+00
	0.000000000000000e+00

 133	2.525600000000000e-11
	2.415715751775960e-07
	0.000000000000000e+00
	0.000000000000000e+00

 134	2.545600000000000e-11
	2.415715754655601e-07
	0.000000000000000e+00
	0.000000000000000e+00

 135	2.565600000000000e-11
	2.415715748167735e-07
	0.000000000000000e+00
	0.000000000000000e+00

 136	2.585600000000000e-11
	2.415715742165592e-07
	0.000000000000000e+00
	0.000000000000000e+00

 137	2.605600000000000e-11
	2.415715736475699e-07
	0.000000000000000e+00
	0.000000000000000e+00

 138	2.625600000000000e-11
	2.415715732659307e-07
	0.000000000000000e+00
	0.000000000000000e+00

 139	2.645600000000000e-11
	2.415715733665447e-07
	0.000000000000000e+00
	0.000000000000000e+00

 140	2.665600000000000e-11
	2.415715734706281e-07
	0.000000000000000e+00
	0.000000000000000e+00

 141	2.685600000000000e-11
	2.415715740361479e-07
	0.000000000000000e+00
	0.000000000000000e+00

 142	2.705600000000000e-11
	2.415715745600344e-07
	0.000000000000000e+00
	0.000000000000000e+00

 143	2.725600000000000e-11
	2.415715743622759e-07
	0.000000000000000e+00
	0.000000000000000e+00

 144	2.745600000000000e-11
	2.415715739494118e-07
	0.000000000000000e+00
	0.000000000000000e+00

 145	2.765600000000000e-11
	2.415715742581925e-07
	0.000000000000000e+00
	0.000000000000000e+00

 146	2.785600000000000e-11
	2.415715744698288e-07
	0.000000000000000e+00
	0.000000000000000e+00

 147	2.805600000000000e-11
	2.415715749659597e-07
	0.000000000000000e+00
	0.000000000000000e+00

 148	2.825600000000000e-11
	2.415715756355630e-07
	0.000000000000000e+00
	0.000000000000000e+00

 149	2.845600000000000e-11
	2.415715762461856e-07
	0.000000000000000e+00
	0.000000000000000e+00

 150	2.865600000000000e-11
	2.415715762010828e-07
	0.000000000000000e+00
	0.000000000000000e+00

 151	2.885600000000000e-11
	2.415715761386328e-07
	0.000000000000000e+00
	0.000000000000000e+00

 152	2.905600000000000e-11
	2.415715765549664e-07
	0.000000000000000e+00
	0.000000000000000e+00

 153	2.925600000000000e-11
	2.415715774535532e-07
	0.000000000000000e+00
	0.000000000000000e+00

 154	2.945600000000000e-11
	2.415715776409033e-07
	0.000000000000000e+00
	0.000000000000000e+00

 155	2.965600000000000e-11
	2.415715780156036e-07
	0.000000000000000e+00
	0.000000000000000e+00

 156	2.985600000000001e-11
	2.415715781266259e-07
	0.000000000000000e+00
	0.000000000000000e+00

 157	3.005600000000001e-11
	2.415715787094930e-07
	0.000000000000000e+00
	0.000000000000000e+00

 158	3.025600000000001e-11
	2.415715790252126e-07
	0.000000000000000e+00
	0.000000000000000e+00

 159	3.045600000000001e-11
	2.415715793374629e-07
	0.000000000000000e+00
	0.000000000000000e+00

 160	3.065600000000002e-11
	2.415715785013262e-07
	0.000000000000000e+00
	0.000000000000000e+00

 161	3.085600000000002e-11
	2.415715784735706e-07
	0.000000000000000e+00
	0.000000000000000e+00

 162	3.105600000000002e-11
	2.415715782480565e-07
	0.000000000000000e+00
	0.000000000000000e+00

 163	3.125600000000003e-11
	2.415715783903039e-07
	0.000000000000000e+00
	0.000000000000000e+00

 164	3.145600000000003e-11
	2.415715784284678e-07
	0.000000000000000e+00
	0.000000000000000e+00

 165	3.165600000000003e-11
	2.415715786470429e-07
	0.000000000000000e+00
	0.000000000000000e+00

 166	3.185600000000004e-11
	2.415715789835793e-07
	0.000000000000000e+00
	0.000000000000000e+00

 167	3.205600000000004e-11
	2.415715795352213e-07
	0.000000000000000e+00
	0.000000000000000e+00

 168	3.225600000000004e-11
	2.415715798752271e-07
	0.000000000000000e+00
	0.000000000000000e+00

 169	3.245600000000005e-11
	2.415715805829943e-07
	0.000000000000000e+00
	0.000000000000000e+00

 170	3.265600000000005e-11
	2.415715814503561e-07
	0.000000000000000e+00
	0.000000000000000e+00

 171	3.285600000000005e-11
	2.415715815370922e-07
	0.000000000000000e+00
	0.000000000000000e+00

 172	3.305600000000006e-11
	2.415715811450447e-07
	0.000000000000000e+00
	0.000000000000000e+00

 173	3.325600000000006e-11
	2.415715814468866e-07
	0.000000000000000e+00
	0.000000000000000e+00

 174	3.345600000000006e-11
	2.415715816619923e-07
	0.000000000000000e+00
	0.000000000000000e+00

 175	3.365600000000007e-11
	2.415715815023978e-07
	0.000000000000000e+00
	0.000000000000000e+00

 176	3.385600000000007e-11
	2.415715821199593e-07
	0.000000000000000e+00
	0.000000000000000e+00

 177	3.405600000000007e-11
	2.415715823975151e-07
	0.000000000000000e+00
	0.000000000000000e+00

 178	3.425600000000008e-11
	2.415715823385345e-07
	0.000000000000000e+00
	0.000000000000000e+00

 179	3.445600000000008e-11
	2.415715826334375e-07
	0.000000000000000e+00
	0.000000000000000e+00

 180	3.465600000000008e-11
	2.415715822517983e-07
	0.000000000000000e+00
	0.000000000000000e+00

 181	3.485600000000008e-11
	2.415715822726150e-07
	0.000000000000000e+00
	0.000000000000000e+00

 182	3.505600000000009e-11
	2.415715818528119e-07
	0.000000000000000e+00
	0.000000000000000e+00

 183	3.525600000000009e-11
	2.415715815717867e-07
	0.000000000000000e+00
	0.000000000000000e+00

 184	3.545600000000009e-11
	2.415715814399477e-07
	0.000000000000000e+00
	0.000000000000000e+00

 185	3.565600000000010e-11
	2.415715817487285e-07
	0.000000000000000e+00
	0.000000000000000e+00

 186	3.585600000000010e-11
	2.415715813983144e-07
	0.000000000000000e+00
	0.000000000000000e+00

 187	3.605600000000010e-11
	2.415715817244424e-07
	0.000000000000000e+00
	0.000000000000000e+00

 188	3.625600000000011e-11
	2.415715818319952e-07
	0.000000000000000e+00
	0.000000000000000e+00

 189	3.645600000000011e-11
	2.415715818007702e-07
	0.000000000000000e+00
	0.000000000000000e+00

 190	3.665600000000011e-11
	2.415715816619923e-07
	0.000000000000000e+00
	0.000000000000000e+00

 191	3.685600000000012e-11
	2.415715815752562e-07
	0.000000000000000e+00
	0.000000000000000e+00

 192	3.705600000000012e-11
	2.415715817383202e-07
	0.000000000000000e+00
	0.000000000000000e+00

 193	3.725600000000012e-11
	2.415715817244424e-07
	0.000000000000000e+00
	0.000000000000000e+00

 194	3.745600000000013e-11
	2.415715818181174e-07
	0.000000000000000e+00
	0.000000000000000e+00

 195	3.765600000000013e-11
	2.415715822066955e-07
	0.000000000000000e+00
	0.000000000000000e+00

 196	3.785600000000013e-11
	2.415715823315956e-07
	0.000000000000000e+00
	0.000000000000000e+00

 197	3.805600000000014e-11
	2.415715822622067e-07
	0.000000000000000e+00
	0.000000000000000e+00

 198	3.825600000000014e-11
	2.415715820228148e-07
	0.000000000000000e+00
	0.000000000000000e+00

 199	3.845600000000014e-11
	2.415715821026121e-07
	0.000000000000000e+00
	0.000000000000000e+00

 200	3.865600000000015e-11
	2.415715820158759e-07
	0.000000000000000e+00
	0.000000000000000e+00

 201	3.885600000000015e-11
	2.415715822136344e-07
	0.000000000000000e+00
	0.000000000000000e+00

 202	3.905600000000015e-11
	2.415715824773124e-07
	0.000000000000000e+00
	0.000000000000000e+00

 203	3.925600000000016e-11
	2.415715822899622e-07
