Title: ** sch_path: /home/designer/unic-cass-aug25/binarytothermo/tb_circuit_stdcells_tran.sch
Date: Sat Dec 20 23:51:20  2025
Command: ngspice-44.2, Build Tue Dec  9 03:02:56 UTC 2025
Plotname: Transient Analysis
Flags: real
No. Variables: 6
No. Points: 3764
Variables:
	0	time	time
	1	v(vo_s1t)	voltage
	2	v(vo_s2t)	voltage
	3	v(vo_s3t)	voltage
	4	v(vs3)	voltage
	5	v(vs4)	voltage
Values:
 0	0.000000000000000e+00
	6.794924040643787e-08
	2.605747231465879e-07
	2.415715858165990e-07
	0.000000000000000e+00
	0.000000000000000e+00

 1	2.000000000000000e-15
	6.794924101161115e-08
	2.605747233747390e-07
	2.415715858539516e-07
	0.000000000000000e+00
	0.000000000000000e+00

 2	4.000000000000000e-15
	6.794924151121151e-08
	2.605747233749592e-07
	2.415715860074746e-07
	0.000000000000000e+00
	0.000000000000000e+00

 3	8.000000000000001e-15
	6.794924270470126e-08
	2.605747235419343e-07
	2.415715859380857e-07
	0.000000000000000e+00
	0.000000000000000e+00

 4	1.600000000000000e-14
	6.794924350961296e-08
	2.605747233486728e-07
	2.415715863336027e-07
	0.000000000000000e+00
	0.000000000000000e+00

 5	3.200000000000000e-14
	6.794924584108131e-08
	2.605747233299481e-07
	2.415715856518563e-07
	0.000000000000000e+00
	0.000000000000000e+00

 6	6.400000000000000e-14
	6.794924784642165e-08
	2.605747236691919e-07
	2.415715848833738e-07
	0.000000000000000e+00
	0.000000000000000e+00

 7	1.280000000000000e-13
	6.794925255793061e-08
	2.605747235646346e-07
	2.415715839830523e-07
	0.000000000000000e+00
	0.000000000000000e+00

 8	2.560000000000000e-13
	6.794926073888652e-08
	2.605747235290418e-07
	2.415715831365073e-07
	0.000000000000000e+00
	0.000000000000000e+00

 9	4.560000000000001e-13
	6.794927077252710e-08
	2.605747220178096e-07
	2.415715809125918e-07
	0.000000000000000e+00
	0.000000000000000e+00

 10	6.560000000000000e-13
	6.794927905756643e-08
	2.605747205342782e-07
	2.415715789939876e-07
	0.000000000000000e+00
	0.000000000000000e+00

 11	8.560000000000000e-13
	6.794928714137782e-08
	2.605747187662184e-07
	2.415715767666027e-07
	0.000000000000000e+00
	0.000000000000000e+00

 12	1.056000000000000e-12
	6.794929393455496e-08
	2.605747169354916e-07
	2.415715747786096e-07
	0.000000000000000e+00
	0.000000000000000e+00

 13	1.256000000000000e-12
	6.794929992282039e-08
	2.605747151809575e-07
	2.415715723881606e-07
	0.000000000000000e+00
	0.000000000000000e+00

 14	1.456000000000000e-12
	6.794930557108003e-08
	2.605747136206552e-07
	2.415715697791365e-07
	0.000000000000000e+00
	0.000000000000000e+00

 15	1.656000000000000e-12
	6.794931169118446e-08
	2.605747126988105e-07
	2.415715674268515e-07
	0.000000000000000e+00
	0.000000000000000e+00

 16	1.856000000000000e-12
	6.794931801251680e-08
	2.605747131439617e-07
	2.415715656192696e-07
	0.000000000000000e+00
	0.000000000000000e+00

 17	2.056000000000000e-12
	6.794932418813238e-08
	2.605747130894881e-07
	2.415715641586325e-07
	0.000000000000000e+00
	0.000000000000000e+00

 18	2.256000000000000e-12
	6.794932964210298e-08
	2.605747129446876e-07
	2.415715628610593e-07
	0.000000000000000e+00
	0.000000000000000e+00

 19	2.456000000000000e-12
	6.794933457565655e-08
	2.605747128622497e-07
	2.415715614906278e-07
	0.000000000000000e+00
	0.000000000000000e+00

 20	2.656000000000000e-12
	6.794933895409860e-08
	2.605747130364576e-07
	2.415715605295909e-07
	0.000000000000000e+00
	0.000000000000000e+00

 21	2.856000000000000e-12
	6.794934314519052e-08
	2.605747130371617e-07
	2.415715593603873e-07
	0.000000000000000e+00
	0.000000000000000e+00

 22	3.055999999999999e-12
	6.794934670484309e-08
	2.605747129961264e-07
	2.415715584166978e-07
	0.000000000000000e+00
	0.000000000000000e+00

 23	3.255999999999999e-12
	6.794934967468969e-08
	2.605747121917136e-07
	2.415715578442390e-07
	0.000000000000000e+00
	0.000000000000000e+00

 24	3.455999999999999e-12
	6.794935290127535e-08
	2.605747121575612e-07
	2.415715563940102e-07
	0.000000000000000e+00
	0.000000000000000e+00

 25	3.656000000000000e-12
	6.794935572540517e-08
	2.605747119637466e-07
	2.415715550409259e-07
	0.000000000000000e+00
	0.000000000000000e+00

 26	3.856000000000000e-12
	6.794935889647968e-08
	2.605747124500020e-07
	2.415715543262198e-07
	0.000000000000000e+00
	0.000000000000000e+00

 27	4.056000000000000e-12
	6.794936089488113e-08
	2.605747123323765e-07
	2.415715535039609e-07
	0.000000000000000e+00
	0.000000000000000e+00

 28	4.256000000000000e-12
	6.794936369125537e-08
	2.605747127075466e-07
	2.415715528170104e-07
	0.000000000000000e+00
	0.000000000000000e+00

 29	4.456000000000000e-12
	6.794936655007966e-08
	2.605747133741607e-07
	2.415715520190376e-07
	0.000000000000000e+00
	0.000000000000000e+00

 30	4.656000000000000e-12
	6.794936872889235e-08
	2.605747136590213e-07
	2.415715509643257e-07
	0.000000000000000e+00
	0.000000000000000e+00

 31	4.856000000000000e-12
	6.794937017912117e-08
	2.605747138674318e-07
	2.415715499790028e-07
	0.000000000000000e+00
	0.000000000000000e+00

 32	5.055999999999999e-12
	6.794937200405027e-08
	2.605747141036608e-07
	2.415715496320581e-07
	0.000000000000000e+00
	0.000000000000000e+00

 33	5.255999999999999e-12
	6.794937364856812e-08
	2.605747136043367e-07
	2.415715491081716e-07
	0.000000000000000e+00
	0.000000000000000e+00

 34	5.455999999999999e-12
	6.794937479348562e-08
	2.605747135628957e-07
	2.415715485946934e-07
	0.000000000000000e+00
	0.000000000000000e+00

 35	5.655999999999999e-12
	6.794937611187546e-08
	2.605747136186283e-07
	2.415715480499903e-07
	0.000000000000000e+00
	0.000000000000000e+00

 36	5.855999999999999e-12
	6.794937709025950e-08
	2.605747135632815e-07
	2.415715472832425e-07
	0.000000000000000e+00
	0.000000000000000e+00

 37	6.055999999999999e-12
	6.794937828374925e-08
	2.605747134940931e-07
	2.415715465303725e-07
	0.000000000000000e+00
	0.000000000000000e+00

 38	6.255999999999999e-12
	6.794937865151063e-08
	2.605747128418989e-07
	2.415715456977052e-07
	0.000000000000000e+00
	0.000000000000000e+00

 39	6.455999999999999e-12
	6.794937838783266e-08
	2.605747119744928e-07
	2.415715455519885e-07
	0.000000000000000e+00
	0.000000000000000e+00

 40	6.655999999999999e-12
	6.794937877641072e-08
	2.605747117802691e-07
	2.415715452327993e-07
	0.000000000000000e+00
	0.000000000000000e+00

 41	6.855999999999999e-12
	6.794937912335541e-08
	2.605747114472604e-07
	2.415715444660516e-07
	0.000000000000000e+00
	0.000000000000000e+00

 42	7.055999999999999e-12
	6.794937936621670e-08
	2.605747108713731e-07
	2.415715440323707e-07
	0.000000000000000e+00
	0.000000000000000e+00

 43	7.255999999999999e-12
	6.794937951193347e-08
	2.605747101983248e-07
	2.415715431997034e-07
	0.000000000000000e+00
	0.000000000000000e+00

 44	7.455999999999999e-12
	6.794938015031171e-08
	2.605747098931207e-07
	2.415715433003174e-07
	0.000000000000000e+00
	0.000000000000000e+00

 45	7.655999999999999e-12
	6.794938121196248e-08
	2.605747098794213e-07
	2.415715432031729e-07
	0.000000000000000e+00
	0.000000000000000e+00

 46	7.855999999999999e-12
	6.794938159360164e-08
	2.605747104345969e-07
	2.415715428111254e-07
	0.000000000000000e+00
	0.000000000000000e+00

 47	8.055999999999999e-12
	6.794938163523501e-08
	2.605747104692984e-07
	2.415715424537723e-07
	0.000000000000000e+00
	0.000000000000000e+00

 48	8.255999999999999e-12
	6.794938255810790e-08
	2.605747101225088e-07
	2.415715426723475e-07
	0.000000000000000e+00
	0.000000000000000e+00

 49	8.455999999999999e-12
	6.794938365445313e-08
	2.605747101435096e-07
	2.415715427521448e-07
	0.000000000000000e+00
	0.000000000000000e+00

 50	8.655999999999999e-12
	6.794938391119221e-08
	2.605747097966081e-07
	2.415715428701060e-07
	0.000000000000000e+00
	0.000000000000000e+00

 51	8.855999999999999e-12
	6.794938382792548e-08
	2.605747090818880e-07
	2.415715424919362e-07
	0.000000000000000e+00
	0.000000000000000e+00

 52	9.055999999999999e-12
	6.794938404303119e-08
	2.605747087557962e-07
	2.415715424156084e-07
	0.000000000000000e+00
	0.000000000000000e+00

 53	9.255999999999999e-12
	6.794938440385367e-08
	2.605747088599402e-07
	2.415715424468334e-07
	0.000000000000000e+00
	0.000000000000000e+00

 54	9.455999999999998e-12
	6.794938540999329e-08
	2.605747089641926e-07
	2.415715425856113e-07
	0.000000000000000e+00
	0.000000000000000e+00

 55	9.655999999999998e-12
	6.794938584020471e-08
	2.605747087560981e-07
	2.415715422039721e-07
	0.000000000000000e+00
	0.000000000000000e+00

 56	9.855999999999998e-12
	6.794938593734923e-08
	2.605747089226478e-07
	2.415715425301002e-07
	0.000000000000000e+00
	0.000000000000000e+00

 57	1.005600000000000e-11
	6.794938609694379e-08
	2.605747095055417e-07
	2.415715420998887e-07
	0.000000000000000e+00
	0.000000000000000e+00

 58	1.025600000000000e-11
	6.794938645776627e-08
	2.605747096929525e-07
	2.415715416557995e-07
	0.000000000000000e+00
	0.000000000000000e+00

 59	1.045600000000000e-11
	6.794938682552765e-08
	2.605747096444420e-07
	2.415715412186492e-07
	0.000000000000000e+00
	0.000000000000000e+00

 60	1.065600000000000e-11
	6.794938720716681e-08
	2.605747102204343e-07
	2.415715411284436e-07
	0.000000000000000e+00
	0.000000000000000e+00

 61	1.085600000000000e-11
	6.794938746390589e-08
	2.605747108172223e-07
	2.415715406288432e-07
	0.000000000000000e+00
	0.000000000000000e+00

 62	1.105600000000000e-11
	6.794938770676717e-08
	2.605747111780856e-07
	2.415715396365814e-07
	0.000000000000000e+00
	0.000000000000000e+00

 63	1.125600000000000e-11
	6.794938738063916e-08
	2.605747108727195e-07
	2.415715392861673e-07
	0.000000000000000e+00
	0.000000000000000e+00

 64	1.145600000000000e-11
	6.794938710308340e-08
	2.605747111710453e-07
	2.415715391161644e-07
	0.000000000000000e+00
	0.000000000000000e+00

 65	1.165600000000000e-11
	6.794938699899999e-08
	2.605747110183721e-07
	2.415715387830975e-07
	0.000000000000000e+00
	0.000000000000000e+00

 66	1.185600000000000e-11
	6.794938732512801e-08
	2.605747109212824e-07
	2.415715385888084e-07
	0.000000000000000e+00
	0.000000000000000e+00

 67	1.205600000000000e-11
	6.794938756105040e-08
	2.605747108519331e-07
	2.415715388837114e-07
	0.000000000000000e+00
	0.000000000000000e+00

 68	1.225600000000000e-11
	6.794938767207270e-08
	2.605747105050071e-07
	2.415715393486173e-07
	0.000000000000000e+00
	0.000000000000000e+00

 69	1.245600000000000e-11
	6.794938758880598e-08
	2.605747097625315e-07
	2.415715395047424e-07
	0.000000000000000e+00
	0.000000000000000e+00

 70	1.265600000000000e-11
	6.794938795656735e-08
	2.605747095613653e-07
	2.415715395776008e-07
	0.000000000000000e+00
	0.000000000000000e+00

 71	1.285600000000000e-11
	6.794938761656155e-08
	2.605747092976302e-07
	2.415715396331120e-07
	0.000000000000000e+00
	0.000000000000000e+00

 72	1.305600000000000e-11
	6.794938815085638e-08
	2.605747099499760e-07
	2.415715395949480e-07
	0.000000000000000e+00
	0.000000000000000e+00

 73	1.325600000000000e-11
	6.794938915699600e-08
	2.605747105815844e-07
	2.415715398586260e-07
	0.000000000000000e+00
	0.000000000000000e+00

 74	1.345600000000000e-11
	6.794938959414631e-08
	2.605747110535026e-07
	2.415715397788287e-07
	0.000000000000000e+00
	0.000000000000000e+00

 75	1.365600000000000e-11
	6.794939020476898e-08
	2.605747111507497e-07
	2.415715402367957e-07
	0.000000000000000e+00
	0.000000000000000e+00

 76	1.385600000000000e-11
	6.794939138438094e-08
	2.605747119974929e-07
	2.415715408647656e-07
	0.000000000000000e+00
	0.000000000000000e+00

 77	1.405600000000000e-11
	6.794939156479218e-08
	2.605747126844737e-07
	2.415715414129382e-07
	0.000000000000000e+00
	0.000000000000000e+00

 78	1.425600000000000e-11
	6.794939236970388e-08
	2.605747132744150e-07
	2.415715424676501e-07
	0.000000000000000e+00
	0.000000000000000e+00

 79	1.445600000000000e-11
	6.794939338278239e-08
	2.605747143431748e-07
	2.415715437444066e-07
	0.000000000000000e+00
	0.000000000000000e+00

 80	1.465600000000000e-11
	6.794939379911602e-08
	2.605747146763117e-07
	2.415715441538013e-07
	0.000000000000000e+00
	0.000000000000000e+00

 81	1.485600000000000e-11
	6.794939438892200e-08
	2.605747151066222e-07
	2.415715448129963e-07
	0.000000000000000e+00
	0.000000000000000e+00

 82	1.505600000000000e-11
	6.794939522852816e-08
	2.605747156896303e-07
	2.415715453715772e-07
	0.000000000000000e+00
	0.000000000000000e+00

 83	1.525600000000000e-11
	6.794939547832834e-08
	2.605747160851892e-07
	2.415715455381107e-07
	0.000000000000000e+00
	0.000000000000000e+00

 84	1.545600000000000e-11
	6.794939583221193e-08
	2.605747167652603e-07
	2.415715459024026e-07
	0.000000000000000e+00
	0.000000000000000e+00

 85	1.565600000000000e-11
	6.794939578363968e-08
	2.605747168485189e-07
	2.415715461452639e-07
	0.000000000000000e+00
	0.000000000000000e+00

 86	1.585600000000000e-11
	6.794939576282299e-08
	2.605747170289266e-07
	2.415715469397672e-07
	0.000000000000000e+00
	0.000000000000000e+00

 87	1.605600000000000e-11
	6.794939635262898e-08
	2.605747177506706e-07
	2.415715480499903e-07
	0.000000000000000e+00
	0.000000000000000e+00

 88	1.625600000000000e-11
	6.794939668569588e-08
	2.605747176535821e-07
	2.415715488063297e-07
	0.000000000000000e+00
	0.000000000000000e+00

 89	1.645600000000000e-11
	6.794939723386850e-08
	2.605747176744909e-07
	2.415715493822579e-07
	0.000000000000000e+00
	0.000000000000000e+00

 90	1.665600000000000e-11
	6.794939757387430e-08
	2.605747182019039e-07
	2.415715507422811e-07
	0.000000000000000e+00
	0.000000000000000e+00

 91	1.685600000000000e-11
	6.794939805959688e-08
	2.605747187015859e-07
	2.415715512869843e-07
	0.000000000000000e+00
	0.000000000000000e+00

 92	1.705600000000000e-11
	6.794939798326904e-08
	2.605747189374955e-07
	2.415715517588291e-07
	0.000000000000000e+00
	0.000000000000000e+00

 93	1.725600000000000e-11
	6.794939781673559e-08
	2.605747188819563e-07
	2.415715526712936e-07
	0.000000000000000e+00
	0.000000000000000e+00

 94	1.745600000000000e-11
	6.794939859389171e-08
	2.605747196106708e-07
	2.415715545552033e-07
	0.000000000000000e+00
	0.000000000000000e+00

 95	1.765600000000000e-11
	6.794939880899742e-08
	2.605747194788679e-07
	2.415715551033759e-07
	0.000000000000000e+00
	0.000000000000000e+00

 96	1.785600000000000e-11
	6.794939881593631e-08
	2.605747197772415e-07
	2.415715562378851e-07
	0.000000000000000e+00
	0.000000000000000e+00

 97	1.805600000000000e-11
	6.794939931553667e-08
	2.605747206516261e-07
	2.415715573481081e-07
	0.000000000000000e+00
	0.000000000000000e+00

 98	1.825600000000000e-11
	6.794939928084220e-08
	2.605747203463089e-07
	2.415715577297473e-07
	0.000000000000000e+00
	0.000000000000000e+00

 99	1.845600000000000e-11
	6.794939955839796e-08
	2.605747202353333e-07
	2.415715588226230e-07
	0.000000000000000e+00
	0.000000000000000e+00

 100	1.865600000000000e-11
	6.794940018289841e-08
	2.605747206725884e-07
	2.415715599744794e-07
	0.000000000000000e+00
	0.000000000000000e+00

 101	1.885600000000000e-11
	6.794940068249877e-08
	2.605747209849226e-07
	2.415715612269498e-07
	0.000000000000000e+00
	0.000000000000000e+00

 102	1.905600000000000e-11
	6.794940057147647e-08
	2.605747212832764e-07
	2.415715620422698e-07
	0.000000000000000e+00
	0.000000000000000e+00

 103	1.925600000000000e-11
	6.794940045351527e-08
	2.605747211167231e-07
	2.415715625002368e-07
	0.000000000000000e+00
	0.000000000000000e+00

 104	1.945600000000000e-11
	6.794940135557148e-08
	2.605747215193305e-07
	2.415715634820903e-07
	0.000000000000000e+00
	0.000000000000000e+00

 105	1.965600000000000e-11
	6.794940096699342e-08
	2.605747212000762e-07
	2.415715640094462e-07
	0.000000000000000e+00
	0.000000000000000e+00

 106	1.985600000000000e-11
	6.794940068943767e-08
	2.605747206241013e-07
	2.415715645298633e-07
	0.000000000000000e+00
	0.000000000000000e+00

 107	2.005600000000000e-11
	6.794940096005453e-08
	2.605747207698636e-07
	2.415715655047779e-07
	0.000000000000000e+00
	0.000000000000000e+00

 108	2.025600000000000e-11
	6.794940090454338e-08
	2.605747206518930e-07
	2.415715663513229e-07
	0.000000000000000e+00
	0.000000000000000e+00

 109	2.045600000000000e-11
	6.794940080739886e-08
	2.605747207975935e-07
	2.415715666254092e-07
	0.000000000000000e+00
	0.000000000000000e+00

 110	2.065600000000000e-11
	6.794940103638236e-08
	2.605747212625378e-07
	2.415715674164431e-07
	0.000000000000000e+00
	0.000000000000000e+00

 111	2.085600000000000e-11
	6.794940116128245e-08
	2.605747213041922e-07
	2.415715676662433e-07
	0.000000000000000e+00
	0.000000000000000e+00

 112	2.105600000000000e-11
	6.794940095311564e-08
	2.605747207004735e-07
	2.415715681450270e-07
	0.000000000000000e+00
	0.000000000000000e+00

 113	2.125600000000000e-11
	6.794940142496042e-08
	2.605747208323917e-07
	2.415715685474829e-07
	0.000000000000000e+00
	0.000000000000000e+00

 114	2.145600000000000e-11
	6.794940099474900e-08
	2.605747205686415e-07
	2.415715690817777e-07
	0.000000000000000e+00
	0.000000000000000e+00

 115	2.165600000000000e-11
	6.794940096005453e-08
	2.605747205061856e-07
	2.415715691303499e-07
	0.000000000000000e+00
	0.000000000000000e+00

 116	2.185600000000000e-11
	6.794940116128245e-08
	2.605747209364308e-07
	2.415715701607757e-07
	0.000000000000000e+00
	0.000000000000000e+00

 117	2.205600000000000e-11
	6.794940106413794e-08
	2.605747206588587e-07
	2.415715711807931e-07
	0.000000000000000e+00
	0.000000000000000e+00

 118	2.225600000000000e-11
	6.794940107107683e-08
	2.605747205270209e-07
	2.415715718989686e-07
	0.000000000000000e+00
	0.000000000000000e+00

 119	2.245600000000000e-11
	6.794940117516024e-08
	2.605747209017387e-07
	2.415715723604051e-07
	0.000000000000000e+00
	0.000000000000000e+00

 120	2.265600000000000e-11
	6.794940086291001e-08
	2.605747209502584e-07
	2.415715724020384e-07
	0.000000000000000e+00
	0.000000000000000e+00

 121	2.285600000000000e-11
	6.794940118903803e-08
	2.605747213805247e-07
	2.415715733179724e-07
	0.000000000000000e+00
	0.000000000000000e+00

 122	2.305600000000000e-11
	6.794940053678200e-08
	2.605747214220484e-07
	2.415715740083924e-07
	0.000000000000000e+00
	0.000000000000000e+00

 123	2.325600000000000e-11
	6.794940048820974e-08
	2.605747209640733e-07
	2.415715744802371e-07
	0.000000000000000e+00
	0.000000000000000e+00

 124	2.345600000000000e-11
	6.794940082821554e-08
	2.605747211445417e-07
	2.415715747682012e-07
	0.000000000000000e+00
	0.000000000000000e+00

 125	2.365600000000000e-11
	6.794940063392652e-08
	2.605747211792035e-07
	2.415715754100489e-07
	0.000000000000000e+00
	0.000000000000000e+00

 126	2.385600000000000e-11
	6.794940085597112e-08
	2.605747208253572e-07
	2.415715753927017e-07
	0.000000000000000e+00
	0.000000000000000e+00

 127	2.405600000000000e-11
	6.794940082127665e-08
	2.605747210127015e-07
	2.415715753129044e-07
	0.000000000000000e+00
	0.000000000000000e+00

 128	2.425600000000000e-11
	6.794940014820394e-08
	2.605747207280938e-07
	2.415715747230984e-07
	0.000000000000000e+00
	0.000000000000000e+00

 129	2.445600000000000e-11
	6.794939942655898e-08
	2.605747206863392e-07
	2.415715747994263e-07
	0.000000000000000e+00
	0.000000000000000e+00

 130	2.465600000000000e-11
	6.794939998860938e-08
	2.605747211305228e-07
	2.415715747404457e-07
	0.000000000000000e+00
	0.000000000000000e+00

 131	2.485600000000000e-11
	6.794940009963168e-08
	2.605747214011583e-07
	2.415715748965708e-07
	0.000000000000000e+00
	0.000000000000000e+00

 132	2.505600000000000e-11
	6.794939995391491e-08
	2.605747210680670e-07
	2.415715746710567e-07
	0.000000000000000e+00
	0.000000000000000e+00

 133	2.525600000000000e-11
	6.794940018983731e-08
	2.605747209709621e-07
	2.415715751775960e-07
	0.000000000000000e+00
	0.000000000000000e+00

 134	2.545600000000000e-11
	6.794940095311564e-08
	2.605747210682348e-07
	2.415715754655601e-07
	0.000000000000000e+00
	0.000000000000000e+00

 135	2.565600000000000e-11
	6.794940112658798e-08
	2.605747207560137e-07
	2.415715748167735e-07
	0.000000000000000e+00
	0.000000000000000e+00

 136	2.585600000000000e-11
	6.794939990534266e-08
	2.605747198398746e-07
	2.415715742165592e-07
	0.000000000000000e+00
	0.000000000000000e+00

 137	2.605600000000000e-11
	6.794939954452017e-08
	2.605747197426694e-07
	2.415715736475699e-07
	0.000000000000000e+00
