Title: ** sch_path: /home/designer/unic-cass-aug25/binarytothermo/tb_circuit_stdcells_tran.sch
Date: Sat Dec 20 23:51:23  2025
Command: ngspice-44.2, Build Tue Dec  9 03:02:56 UTC 2025
Plotname: Transient Analysis
Flags: real
No. Variables: 5
No. Points: 3764
Variables:
	0	time	time
	1	v(vo_s1t)	voltage
	2	v(vo_s2t)	voltage
	3	v(vs3)	voltage
	4	v(vs4)	voltage
Values:
 0	0.000000000000000e+00
	4.097465952239566e-07
	2.605747182101649e-07
	0.000000000000000e+00
	1.200000000000000e+00

 1	2.000000000000000e-15
	4.097465951952151e-07
	2.605747185033958e-07
	0.000000000000000e+00
	1.200000000000000e+00

 2	4.000000000000000e-15
	4.097465952507262e-07
	2.605747184481018e-07
	0.000000000000000e+00
	1.200000000000000e+00

 3	8.000000000000001e-15
	4.097465953062374e-07
	2.605747187813860e-07
	0.000000000000000e+00
	1.200000000000000e+00

 4	1.600000000000000e-14
	4.097465949037815e-07
	2.605747196320844e-07
	0.000000000000000e+00
	1.200000000000000e+00

 5	3.200000000000000e-14
	4.097465953895041e-07
	2.605747198040017e-07
	0.000000000000000e+00
	1.200000000000000e+00

 6	6.400000000000000e-14
	4.097465958821656e-07
	2.605747204817805e-07
	0.000000000000000e+00
	1.200000000000000e+00

 7	1.280000000000000e-13
	4.097465960695157e-07
	2.605747207119571e-07
	0.000000000000000e+00
	1.200000000000000e+00

 8	2.560000000000000e-13
	4.097465972630054e-07
	2.605747202413950e-07
	0.000000000000000e+00
	1.200000000000000e+00

 9	4.560000000000001e-13
	4.097465983662896e-07
	2.605747210402831e-07
	0.000000000000000e+00
	1.200000000000000e+00

 10	6.560000000000000e-13
	4.097465999344796e-07
	2.605747226642476e-07
	0.000000000000000e+00
	1.200000000000000e+00

 11	8.560000000000000e-13
	4.097466004202022e-07
	2.605747236565909e-07
	0.000000000000000e+00
	1.200000000000000e+00

 12	1.056000000000000e-12
	4.097466017177753e-07
	2.605747248156040e-07
	0.000000000000000e+00
	1.200000000000000e+00

 13	1.256000000000000e-12
	4.097466029390207e-07
	2.605747258843987e-07
	0.000000000000000e+00
	1.200000000000000e+00

 14	1.456000000000000e-12
	4.097466043337383e-07
	2.605747269879170e-07
	0.000000000000000e+00
	1.200000000000000e+00

 15	1.656000000000000e-12
	4.097466052219167e-07
	2.605747283550282e-07
	0.000000000000000e+00
	1.200000000000000e+00

 16	1.856000000000000e-12
	4.097466059851951e-07
	2.605747288478178e-07
	0.000000000000000e+00
	1.200000000000000e+00

 17	2.056000000000000e-12
	4.097466055619226e-07
	2.605747286326410e-07
	0.000000000000000e+00
	1.200000000000000e+00

 18	2.256000000000000e-12
	4.097466059782562e-07
	2.605747287576110e-07
	0.000000000000000e+00
	1.200000000000000e+00

 19	2.456000000000000e-12
	4.097466067137789e-07
	2.605747293822349e-07
	0.000000000000000e+00
	1.200000000000000e+00

 20	2.656000000000000e-12
	4.097466068872513e-07
	2.605747291532806e-07
	0.000000000000000e+00
	1.200000000000000e+00

 21	2.856000000000000e-12
	4.097466064639788e-07
	2.605747290283094e-07
	0.000000000000000e+00
	1.200000000000000e+00

 22	3.055999999999999e-12
	4.097466062835675e-07
	2.605747287992956e-07
	0.000000000000000e+00
	1.200000000000000e+00

 23	3.255999999999999e-12
	4.097466058880506e-07
	2.605747283620789e-07
	0.000000000000000e+00
	1.200000000000000e+00

 24	3.455999999999999e-12
	4.097466051594667e-07
	2.605747281121564e-07
	0.000000000000000e+00
	1.200000000000000e+00

 25	3.656000000000000e-12
	4.097466047361942e-07
	2.605747275361571e-07
	0.000000000000000e+00
	1.200000000000000e+00

 26	3.856000000000000e-12
	4.097466041116937e-07
	2.605747271058409e-07
	0.000000000000000e+00
	1.200000000000000e+00

 27	4.056000000000000e-12
	4.097466036884212e-07
	2.605747265714750e-07
	0.000000000000000e+00
	1.200000000000000e+00

 28	4.256000000000000e-12
	4.097466031124930e-07
	2.605747260023891e-07
	0.000000000000000e+00
	1.200000000000000e+00

 29	4.456000000000000e-12
	4.097466027655483e-07
	2.605747251419079e-07
	0.000000000000000e+00
	1.200000000000000e+00

 30	4.656000000000000e-12
	4.097466026545260e-07
	2.605747245590222e-07
	0.000000000000000e+00
	1.200000000000000e+00

 31	4.856000000000000e-12
	4.097466023700314e-07
	2.605747242744798e-07
	0.000000000000000e+00
	1.200000000000000e+00

 32	5.055999999999999e-12
	4.097466027586094e-07
	2.605747246839398e-07
	0.000000000000000e+00
	1.200000000000000e+00

 33	5.255999999999999e-12
	4.097466029390207e-07
	2.605747248990758e-07
	0.000000000000000e+00
	1.200000000000000e+00

 34	5.455999999999999e-12
	4.097466029737151e-07
	2.605747250170428e-07
	0.000000000000000e+00
	1.200000000000000e+00

 35	5.655999999999999e-12
	4.097466027377927e-07
	2.605747249684309e-07
	0.000000000000000e+00
	1.200000000000000e+00

 36	5.855999999999999e-12
	4.097466025088092e-07
	2.605747247949201e-07
	0.000000000000000e+00
	1.200000000000000e+00

 37	6.055999999999999e-12
	4.097466021688034e-07
	2.605747241773015e-07
	0.000000000000000e+00
	1.200000000000000e+00

 38	6.255999999999999e-12
	4.097466020994145e-07
	2.605747237332007e-07
	0.000000000000000e+00
	1.200000000000000e+00

 39	6.455999999999999e-12
	4.097466021826812e-07
	2.605747231642253e-07
	0.000000000000000e+00
	1.200000000000000e+00

 40	6.655999999999999e-12
	4.097466021063534e-07
	2.605747224009342e-07
	0.000000000000000e+00
	1.200000000000000e+00

 41	6.855999999999999e-12
	4.097466020439033e-07
	2.605747221441846e-07
	0.000000000000000e+00
	1.200000000000000e+00

 42	7.055999999999999e-12
	4.097466015234863e-07
	2.605747217485803e-07
	0.000000000000000e+00
	1.200000000000000e+00

 43	7.255999999999999e-12
	4.097466014749140e-07
	2.605747211448884e-07
	0.000000000000000e+00
	1.200000000000000e+00

 44	7.455999999999999e-12
	4.097466014194029e-07
	2.605747207909955e-07
	0.000000000000000e+00
	1.200000000000000e+00

 45	7.655999999999999e-12
	4.097466008989858e-07
	2.605747205341691e-07
	0.000000000000000e+00
	1.200000000000000e+00

 46	7.855999999999999e-12
	4.097466005659189e-07
	2.605747199165516e-07
	0.000000000000000e+00
	1.200000000000000e+00

 47	8.055999999999999e-12
	4.097466007810247e-07
	2.605747198749543e-07
	0.000000000000000e+00
	1.200000000000000e+00

 48	8.255999999999999e-12
	4.097466009753137e-07
	2.605747199374370e-07
	0.000000000000000e+00
	1.200000000000000e+00

 49	8.455999999999999e-12
	4.097466008781692e-07
	2.605747199304818e-07
	0.000000000000000e+00
	1.200000000000000e+00

 50	8.655999999999999e-12
	4.097466010100081e-07
	2.605747199027484e-07
	0.000000000000000e+00
	1.200000000000000e+00

 51	8.855999999999999e-12
	4.097466009267414e-07
	2.605747195280341e-07
	0.000000000000000e+00
	1.200000000000000e+00

 52	9.055999999999999e-12
	4.097466006700023e-07
	2.605747195696243e-07
	0.000000000000000e+00
	1.200000000000000e+00

 53	9.255999999999999e-12
	4.097466004479577e-07
	2.605747195973426e-07
	0.000000000000000e+00
	1.200000000000000e+00

 54	9.455999999999998e-12
	4.097465999969296e-07
	2.605747196111447e-07
	0.000000000000000e+00
	1.200000000000000e+00

 55	9.655999999999998e-12
	4.097465998026406e-07
	2.605747188686505e-07
	0.000000000000000e+00
	1.200000000000000e+00

 56	9.855999999999998e-12
	4.097465995112071e-07
	2.605747190559517e-07
	0.000000000000000e+00
	1.200000000000000e+00

 57	1.005600000000000e-11
	4.097465994279403e-07
	2.605747192224712e-07
	0.000000000000000e+00
	1.200000000000000e+00

 58	1.025600000000000e-11
	4.097465993654903e-07
	2.605747191322551e-07
	0.000000000000000e+00
	1.200000000000000e+00

 59	1.045600000000000e-11
	4.097465990809956e-07
	2.605747194930298e-07
	0.000000000000000e+00
	1.200000000000000e+00

 60	1.065600000000000e-11
	4.097465991503846e-07
	2.605747195832471e-07
	0.000000000000000e+00
	1.200000000000000e+00

 61	1.085600000000000e-11
	4.097465987756843e-07
	2.605747193888951e-07
	0.000000000000000e+00
	1.200000000000000e+00

 62	1.105600000000000e-11
	4.097465988520121e-07
	2.605747191946189e-07
	0.000000000000000e+00
	1.200000000000000e+00

 63	1.125600000000000e-11
	4.097465987826232e-07
	2.605747192223628e-07
	0.000000000000000e+00
	1.200000000000000e+00

 64	1.145600000000000e-11
	4.097465988520121e-07
	2.605747194791135e-07
	0.000000000000000e+00
	1.200000000000000e+00

 65	1.165600000000000e-11
	4.097465985536397e-07
	2.605747196664136e-07
	0.000000000000000e+00
	1.200000000000000e+00

 66	1.185600000000000e-11
	4.097465982830228e-07
	2.605747198953517e-07
	0.000000000000000e+00
	1.200000000000000e+00

 67	1.205600000000000e-11
	4.097465985189452e-07
	2.605747197496745e-07
	0.000000000000000e+00
	1.200000000000000e+00

 68	1.225600000000000e-11
	4.097465985952731e-07
	2.605747198607096e-07
	0.000000000000000e+00
	1.200000000000000e+00

 69	1.245600000000000e-11
	4.097465989907900e-07
	2.605747200411873e-07
	0.000000000000000e+00
	1.200000000000000e+00

 70	1.265600000000000e-11
	4.097465990116067e-07
	2.605747205338522e-07
	0.000000000000000e+00
	1.200000000000000e+00

 71	1.285600000000000e-11
	4.097465991226290e-07
	2.605747201730484e-07
	0.000000000000000e+00
	1.200000000000000e+00

 72	1.305600000000000e-11
	4.097465982830228e-07
	2.605747196247348e-07
	0.000000000000000e+00
	1.200000000000000e+00

 73	1.325600000000000e-11
	4.097465982136339e-07
	2.605747196316620e-07
	0.000000000000000e+00
	1.200000000000000e+00

 74	1.345600000000000e-11
	4.097465988381344e-07
	2.605747197427892e-07
	0.000000000000000e+00
	1.200000000000000e+00

 75	1.365600000000000e-11
	4.097465987618065e-07
	2.605747196664485e-07
	0.000000000000000e+00
	1.200000000000000e+00

 76	1.385600000000000e-11
	4.097465984842508e-07
	2.605747191945571e-07
	0.000000000000000e+00
	1.200000000000000e+00

 77	1.405600000000000e-11
	4.097465979777115e-07
	2.605747185283383e-07
	0.000000000000000e+00
	1.200000000000000e+00

 78	1.425600000000000e-11
	4.097465984218007e-07
	2.605747184590239e-07
	0.000000000000000e+00
	1.200000000000000e+00

 79	1.445600000000000e-11
	4.097465982552673e-07
	2.605747185006293e-07
	0.000000000000000e+00
	1.200000000000000e+00

 80	1.465600000000000e-11
	4.097465978181170e-07
	2.605747180287112e-07
	0.000000000000000e+00
	1.200000000000000e+00

 81	1.485600000000000e-11
	4.097465982483284e-07
	2.605747179593944e-07
	0.000000000000000e+00
	1.200000000000000e+00

 82	1.505600000000000e-11
	4.097465981442450e-07
	2.605747181883605e-07
	0.000000000000000e+00
	1.200000000000000e+00

 83	1.525600000000000e-11
	4.097465973115777e-07
	2.605747178759705e-07
	0.000000000000000e+00
	1.200000000000000e+00

 84	1.545600000000000e-11
	4.097465972560665e-07
	2.605747178829000e-07
	0.000000000000000e+00
	1.200000000000000e+00

 85	1.565600000000000e-11
	4.097465971450442e-07
	2.605747180147204e-07
	0.000000000000000e+00
	1.200000000000000e+00

 86	1.585600000000000e-11
	4.097465965482994e-07
	2.605747173276697e-07
	0.000000000000000e+00
	1.200000000000000e+00

 87	1.605600000000000e-11
	4.097465965829938e-07
	2.605747177717647e-07
	0.000000000000000e+00
	1.200000000000000e+00

 88	1.625600000000000e-11
	4.097465968327940e-07
	2.605747180979347e-07
	0.000000000000000e+00
	1.200000000000000e+00

 89	1.645600000000000e-11
	4.097465970895331e-07
	2.605747180494056e-07
	0.000000000000000e+00
	1.200000000000000e+00

 90	1.665600000000000e-11
	4.097465965552383e-07
	2.605747178619657e-07
	0.000000000000000e+00
	1.200000000000000e+00

 91	1.685600000000000e-11
	4.097465962429880e-07
	2.605747175357853e-07
	0.000000000000000e+00
	1.200000000000000e+00

 92	1.705600000000000e-11
	4.097465962638047e-07
	2.605747175496665e-07
	0.000000000000000e+00
	1.200000000000000e+00

 93	1.725600000000000e-11
	4.097465969993275e-07
	2.605747183477628e-07
	0.000000000000000e+00
	1.200000000000000e+00

 94	1.745600000000000e-11
	4.097465971242276e-07
	2.605747186184007e-07
	0.000000000000000e+00
	1.200000000000000e+00

 95	1.765600000000000e-11
	4.097465966315661e-07
	2.605747183615789e-07
	0.000000000000000e+00
	1.200000000000000e+00

 96	1.785600000000000e-11
	4.097465961874769e-07
	2.605747180978263e-07
	0.000000000000000e+00
	1.200000000000000e+00

 97	1.805600000000000e-11
	4.097465963678881e-07
	2.605747180076510e-07
	0.000000000000000e+00
	1.200000000000000e+00

 98	1.825600000000000e-11
	4.097465969646330e-07
	2.605747184518404e-07
	0.000000000000000e+00
	1.200000000000000e+00

 99	1.845600000000000e-11
	4.097465972630054e-07
	2.605747186253629e-07
	0.000000000000000e+00
	1.200000000000000e+00

 100	1.865600000000000e-11
	4.097465966385050e-07
	2.605747180562687e-07
	0.000000000000000e+00
	1.200000000000000e+00

 101	1.885600000000000e-11
	4.097465962291102e-07
	2.605747174455773e-07
	0.000000000000000e+00
	1.200000000000000e+00

 102	1.905600000000000e-11
	4.097465962499269e-07
	2.605747177023199e-07
	0.000000000000000e+00
	1.200000000000000e+00

 103	1.925600000000000e-11
	4.097465970478997e-07
	2.605747183269543e-07
	0.000000000000000e+00
	1.200000000000000e+00

 104	1.945600000000000e-11
	4.097465970409608e-07
	2.605747181118474e-07
	0.000000000000000e+00
	1.200000000000000e+00

 105	1.965600000000000e-11
	4.097465964303382e-07
	2.605747180492949e-07
	0.000000000000000e+00
	1.200000000000000e+00

 106	1.985600000000000e-11
	4.097465960764546e-07
	2.605747175357573e-07
	0.000000000000000e+00
	1.200000000000000e+00

 107	2.005600000000000e-11
	4.097465962291102e-07
	2.605747174455773e-07
	0.000000000000000e+00
	1.200000000000000e+00

 108	2.025600000000000e-11
	4.097465968119773e-07
	2.605747180771145e-07
	0.000000000000000e+00
	1.200000000000000e+00

 109	2.045600000000000e-11
	4.097465971797387e-07
	2.605747178759483e-07
	0.000000000000000e+00
	1.200000000000000e+00

 110	2.065600000000000e-11
	4.097465965066660e-07
	2.605747176052185e-07
	0.000000000000000e+00
	1.200000000000000e+00

 111	2.085600000000000e-11
	4.097465960695157e-07
	2.605747170361558e-07
	0.000000000000000e+00
	1.200000000000000e+00

 112	2.105600000000000e-11
	4.097465962082936e-07
	2.605747173900627e-07
	0.000000000000000e+00
	1.200000000000000e+00

 113	2.125600000000000e-11
	4.097465965136049e-07
	2.605747177093030e-07
	0.000000000000000e+00
	1.200000000000000e+00

 114	2.145600000000000e-11
	4.097465966176883e-07
	2.605747176329927e-07
	0.000000000000000e+00
	1.200000000000000e+00

 115	2.165600000000000e-11
	4.097465962638047e-07
	2.605747171333329e-07
	0.000000000000000e+00
	1.200000000000000e+00

 116	2.185600000000000e-11
	4.097465960764546e-07
	2.605747171333015e-07
	0.000000000000000e+00
	1.200000000000000e+00

 117	2.205600000000000e-11
	4.097465968674885e-07
	2.605747178758959e-07
	0.000000000000000e+00
	1.200000000000000e+00

 118	2.225600000000000e-11
	4.097465969785108e-07
	2.605747178828535e-07
	0.000000000000000e+00
	1.200000000000000e+00

 119	2.245600000000000e-11
	4.097465962221714e-07
	2.605747176398652e-07
	0.000000000000000e+00
	1.200000000000000e+00

 120	2.265600000000000e-11
	4.097465962776825e-07
	2.605747174247688e-07
	0.000000000000000e+00
	1.200000000000000e+00

 121	2.285600000000000e-11
	4.097465970062664e-07
	2.605747181812306e-07
	0.000000000000000e+00
	1.200000000000000e+00

 122	2.305600000000000e-11
	4.097465970409608e-07
	2.605747179869474e-07
	0.000000000000000e+00
	1.200000000000000e+00

 123	2.325600000000000e-11
	4.097465961527824e-07
	2.605747173484200e-07
	0.000000000000000e+00
	1.200000000000000e+00

 124	2.345600000000000e-11
	4.097465957919599e-07
	2.605747176259152e-07
	0.000000000000000e+00
	1.200000000000000e+00

 125	2.365600000000000e-11
	4.097465961250268e-07
	2.605747179520991e-07
	0.000000000000000e+00
	1.200000000000000e+00

 126	2.385600000000000e-11
	4.097465962082936e-07
	2.605747177439463e-07
	0.000000000000000e+00
	1.200000000000000e+00

 127	2.405600000000000e-11
	4.097465955768542e-07
	2.605747173622011e-07
	0.000000000000000e+00
	1.200000000000000e+00

 128	2.425600000000000e-11
	4.097465956184876e-07
	2.605747175079249e-07
	0.000000000000000e+00
	1.200000000000000e+00

 129	2.445600000000000e-11
	4.097465961666602e-07
	2.605747179382283e-07
	0.000000000000000e+00
	1.200000000000000e+00

 130	2.465600000000000e-11
	4.097465965829938e-07
	2.605747176260479e-07
	0.000000000000000e+00
	1.200000000000000e+00

 131	2.485600000000000e-11
	4.097465959723712e-07
	2.605747173136952e-07
	0.000000000000000e+00
	1.200000000000000e+00

 132	2.505600000000000e-11
	4.097465960070656e-07
	2.605747174177845e-07
	0.000000000000000e+00
	1.200000000000000e+00

 133	2.525600000000000e-11
	4.097465964511549e-07
	2.605747177925593e-07
	0.000000000000000e+00
	1.200000000000000e+00

 134	2.545600000000000e-11
	4.097465967564662e-07
	2.605747179799607e-07
	0.000000000000000e+00
	1.200000000000000e+00

 135	2.565600000000000e-11
	4.097465963609492e-07
	2.605747175913162e-07
	0.000000000000000e+00
	1.200000000000000e+00

 136	2.585600000000000e-11
	4.097465957433877e-07
	2.605747173414124e-07
	0.000000000000000e+00
	1.200000000000000e+00

 137	2.605600000000000e-11
	4.097465954033819e-07
	2.605747174801332e-07
	0.000000000000000e+00
	1.200000000000000e+00

 138	2.625600000000000e-11
	4.097465962568658e-07
	2.605747179451823e-07
	0.000000000000000e+00
	1.200000000000000e+00

 139	2.645600000000000e-11
	4.097465964442160e-07
	2.605747180770528e-07
	0.000000000000000e+00
	1.200000000000000e+00

 140	2.665600000000000e-11
	4.097465962638047e-07
	2.605747176259944e-07
	0.000000000000000e+00
	1.200000000000000e+00

 141	2.685600000000000e-11
	4.097465953409318e-07
	2.605747171748114e-07
	0.000000000000000e+00
	1.200000000000000e+00

 142	2.705600000000000e-11
	4.097465957572655e-07
	2.605747174940704e-07
	0.000000000000000e+00
	1.200000000000000e+00

 143	2.725600000000000e-11
	4.097465962638047e-07
	2.605747179798780e-07
	0.000000000000000e+00
	1.200000000000000e+00

 144	2.745600000000000e-11
	4.097465962499269e-07
	2.605747178133422e-07
	0.000000000000000e+00
	1.200000000000000e+00

 145	2.765600000000000e-11
	4.097465958613489e-07
	2.605747173622489e-07
	0.000000000000000e+00
	1.200000000000000e+00

 146	2.785600000000000e-11
	4.097465959723712e-07
	2.605747174039009e-07
	0.000000000000000e+00
	1.200000000000000e+00

 147	2.805600000000000e-11
	4.097465964511549e-07
	2.605747177925593e-07
	0.000000000000000e+00
	1.200000000000000e+00

 148	2.825600000000000e-11
	4.097465964580937e-07
	2.605747179035827e-07
	0.000000000000000e+00
	1.200000000000000e+00

 149	2.845600000000000e-11
	4.097465958197155e-07
	2.605747171748917e-07
	0.000000000000000e+00
	1.200000000000000e+00

 150	2.865600000000000e-11
	4.097465960486990e-07
	2.605747174455470e-07
	0.000000000000000e+00
	1.200000000000000e+00

 151	2.885600000000000e-11
	4.097465965482994e-07
	2.605747179382924e-07
	0.000000000000000e+00
	1.200000000000000e+00

 152	2.905600000000000e-11
	4.097465968397329e-07
	2.605747177787467e-07
	0.000000000000000e+00
	1.200000000000000e+00

 153	2.925600000000000e-11
	4.097465963401326e-07
	2.605747172374291e-07
	0.000000000000000e+00
	1.200000000000000e+00

 154	2.945600000000000e-11
	4.097465965413605e-07
	2.605747174039964e-07
	0.000000000000000e+00
	1.200000000000000e+00

 155	2.965600000000000e-11
	4.097465964095215e-07
	2.605747172998908e-07
	0.000000000000000e+00
	1.200000000000000e+00

 156	2.985600000000001e-11
	4.097465959099211e-07
	2.605747167655121e-07
	0.000000000000000e+00
	1.200000000000000e+00

 157	3.005600000000001e-11
	4.097465960764546e-07
	2.605747166128844e-07
	0.000000000000000e+00
	1.200000000000000e+00

 158	3.025600000000001e-11
	4.097465965066660e-07
	2.605747172305182e-07
	0.000000000000000e+00
	1.200000000000000e+00

 159	3.045600000000001e-11
	4.097465964789104e-07
	2.605747174664359e-07
	0.000000000000000e+00
	1.200000000000000e+00

 160	3.065600000000002e-11
	4.097465958613489e-07
	2.605747172373488e-07
	0.000000000000000e+00
	1.200000000000000e+00

 161	3.085600000000002e-11
	4.097465956254265e-07
	2.605747174177204e-07
	0.000000000000000e+00
	1.200000000000000e+00

 162	3.105600000000002e-11
	4.097465962360491e-07
	2.605747173831284e-07
	0.000000000000000e+00
	1.200000000000000e+00

 163	3.125600000000003e-11
	4.097465957503266e-07
	2.605747167585465e-07
	0.000000000000000e+00
	1.200000000000000e+00

 164	3.145600000000003e-11
	4.097465956254265e-07
