Title: ** sch_path: /home/designer/unic-cass-aug25/binarytothermo/tb_circuit_stdcells_tran.sch
Date: Sat Dec 20 23:51:25  2025
Command: ngspice-44.2, Build Tue Dec  9 03:02:56 UTC 2025
Plotname: Transient Analysis
Flags: real
No. Variables: 4
No. Points: 3764
Variables:
	0	time	time
	1	v(vo_s1t)	voltage
	2	v(vs3)	voltage
	3	v(vs4)	voltage
Values:
 0	0.000000000000000e+00
	3.565086097710228e-07
	1.200000000000000e+00
	0.000000000000000e+00

 1	2.000000000000000e-15
	3.565086097480352e-07
	1.200000000000000e+00
	0.000000000000000e+00

 2	4.000000000000000e-15
	3.565086096092573e-07
	1.200000000000000e+00
	0.000000000000000e+00

 3	8.000000000000001e-15
	3.565086092727210e-07
	1.200000000000000e+00
	0.000000000000000e+00

 4	1.600000000000000e-14
	3.565086073402390e-07
	1.200000000000000e+00
	0.000000000000000e+00

 5	3.200000000000000e-14
	3.565086065717565e-07
	1.200000000000000e+00
	0.000000000000000e+00

 6	6.400000000000000e-14
	3.565086105373344e-07
	1.200000000000000e+00
	0.000000000000000e+00

 7	1.280000000000000e-13
	3.565086316298371e-07
	1.200000000000000e+00
	0.000000000000000e+00

 8	2.560000000000000e-13
	3.565087056513552e-07
	1.200000000000000e+00
	0.000000000000000e+00

 9	4.560000000000001e-13
	3.565088512666459e-07
	1.200000000000000e+00
	0.000000000000000e+00

 10	6.560000000000000e-13
	3.565090019690131e-07
	1.200000000000000e+00
	0.000000000000000e+00

 11	8.560000000000000e-13
	3.565091448078789e-07
	1.200000000000000e+00
	0.000000000000000e+00

 12	1.056000000000000e-12
	3.565092801458003e-07
	1.200000000000000e+00
	0.000000000000000e+00

 13	1.256000000000000e-12
	3.565094066739286e-07
	1.200000000000000e+00
	0.000000000000000e+00

 14	1.456000000000000e-12
	3.565095252205941e-07
	1.200000000000000e+00
	0.000000000000000e+00

 15	1.656000000000000e-12
	3.565096364736148e-07
	1.200000000000000e+00
	0.000000000000000e+00

 16	1.856000000000000e-12
	3.565097406272796e-07
	1.200000000000000e+00
	0.000000000000000e+00

 17	2.056000000000000e-12
	3.565098378247034e-07
	1.200000000000000e+00
	0.000000000000000e+00

 18	2.256000000000000e-12
	3.565099287129378e-07
	1.200000000000000e+00
	0.000000000000000e+00

 19	2.456000000000000e-12
	3.565100134160157e-07
	1.200000000000000e+00
	0.000000000000000e+00

 20	2.656000000000000e-12
	3.565100925046610e-07
	1.200000000000000e+00
	0.000000000000000e+00

 21	2.856000000000000e-12
	3.565101655547340e-07
	1.200000000000000e+00
	0.000000000000000e+00

 22	3.055999999999999e-12
	3.565102337371728e-07
	1.200000000000000e+00
	0.000000000000000e+00

 23	3.255999999999999e-12
	3.565102967041656e-07
	1.200000000000000e+00
	0.000000000000000e+00

 24	3.455999999999999e-12
	3.565103550888862e-07
	1.200000000000000e+00
	0.000000000000000e+00

 25	3.656000000000000e-12
	3.565104086389326e-07
	1.200000000000000e+00
	0.000000000000000e+00

 26	3.856000000000000e-12
	3.565104581444711e-07
	1.200000000000000e+00
	0.000000000000000e+00

 27	4.056000000000000e-12
	3.565105032741697e-07
	1.200000000000000e+00
	0.000000000000000e+00

 28	4.256000000000000e-12
	3.565105446169670e-07
	1.200000000000000e+00
	0.000000000000000e+00

 29	4.456000000000000e-12
	3.565105826837389e-07
	1.200000000000000e+00
	0.000000000000000e+00

 30	4.656000000000000e-12
	3.565106174198418e-07
	1.200000000000000e+00
	0.000000000000000e+00

 31	4.856000000000000e-12
	3.565106489024708e-07
	1.200000000000000e+00
	0.000000000000000e+00

 32	5.055999999999999e-12
	3.565106772157600e-07
	1.200000000000000e+00
	0.000000000000000e+00

 33	5.255999999999999e-12
	3.565107020171016e-07
	1.200000000000000e+00
	0.000000000000000e+00

 34	5.455999999999999e-12
	3.565107244080448e-07
	1.200000000000000e+00
	0.000000000000000e+00

 35	5.655999999999999e-12
	3.565107442749654e-07
	1.200000000000000e+00
	0.000000000000000e+00

 36	5.855999999999999e-12
	3.565107615467397e-07
	1.200000000000000e+00
	0.000000000000000e+00

 37	6.055999999999999e-12
	3.565107765564346e-07
	1.200000000000000e+00
	0.000000000000000e+00

 38	6.255999999999999e-12
	3.565107897290573e-07
	1.200000000000000e+00
	0.000000000000000e+00

 39	6.455999999999999e-12
	3.565108003516365e-07
	1.200000000000000e+00
	0.000000000000000e+00

 40	6.655999999999999e-12
	3.565108096428155e-07
	1.200000000000000e+00
	0.000000000000000e+00

 41	6.855999999999999e-12
	3.565108171134021e-07
	1.200000000000000e+00
	0.000000000000000e+00

 42	7.055999999999999e-12
	3.565108227885500e-07
	1.200000000000000e+00
	0.000000000000000e+00

 43	7.255999999999999e-12
	3.565108268634154e-07
	1.200000000000000e+00
	0.000000000000000e+00

 44	7.455999999999999e-12
	3.565108294030506e-07
	1.200000000000000e+00
	0.000000000000000e+00

 45	7.655999999999999e-12
	3.565108305115389e-07
	1.200000000000000e+00
	0.000000000000000e+00

 46	7.855999999999999e-12
	3.565108305288861e-07
	1.200000000000000e+00
	0.000000000000000e+00

 47	8.055999999999999e-12
	3.565108290847288e-07
	1.200000000000000e+00
	0.000000000000000e+00

 48	8.255999999999999e-12
	3.565108259709002e-07
	1.200000000000000e+00
	0.000000000000000e+00

 49	8.455999999999999e-12
	3.565108218179722e-07
	1.200000000000000e+00
	0.000000000000000e+00

 50	8.655999999999999e-12
	3.565108171871278e-07
	1.200000000000000e+00
	0.000000000000000e+00

 51	8.855999999999999e-12
	3.565108109343171e-07
	1.200000000000000e+00
	0.000000000000000e+00

 52	9.055999999999999e-12
	3.565108042365497e-07
	1.200000000000000e+00
	0.000000000000000e+00

 53	9.255999999999999e-12
	3.565107964658559e-07
	1.200000000000000e+00
	0.000000000000000e+00

 54	9.455999999999998e-12
	3.565107880897436e-07
	1.200000000000000e+00
	0.000000000000000e+00

 55	9.655999999999998e-12
	3.565107791403052e-07
	1.200000000000000e+00
	0.000000000000000e+00

 56	9.855999999999998e-12
	3.565107692541161e-07
	1.200000000000000e+00
	0.000000000000000e+00

 57	1.005600000000000e-11
	3.565107591137900e-07
	1.200000000000000e+00
	0.000000000000000e+00

 58	1.025600000000000e-11
	3.565107486048352e-07
	1.200000000000000e+00
	0.000000000000000e+00

 59	1.045600000000000e-11
	3.565107370073414e-07
	1.200000000000000e+00
	0.000000000000000e+00

 60	1.065600000000000e-11
	3.565107248477972e-07
	1.200000000000000e+00
	0.000000000000000e+00

 61	1.085600000000000e-11
	3.565107120941102e-07
	1.200000000000000e+00
	0.000000000000000e+00

 62	1.105600000000000e-11
	3.565106992389419e-07
	1.200000000000000e+00
	0.000000000000000e+00

 63	1.125600000000000e-11
	3.565106855398306e-07
	1.200000000000000e+00
	0.000000000000000e+00

 64	1.145600000000000e-11
	3.565106715215302e-07
	1.200000000000000e+00
	0.000000000000000e+00

 65	1.165600000000000e-11
	3.565106572256740e-07
	1.200000000000000e+00
	0.000000000000000e+00

 66	1.185600000000000e-11
	3.565106429506346e-07
	1.200000000000000e+00
	0.000000000000000e+00

 67	1.205600000000000e-11
	3.565106280562988e-07
	1.200000000000000e+00
	0.000000000000000e+00

 68	1.225600000000000e-11
	3.565106130223178e-07
	1.200000000000000e+00
	0.000000000000000e+00

 69	1.245600000000000e-11
	3.565105983231384e-07
	1.200000000000000e+00
	0.000000000000000e+00

 70	1.265600000000000e-11
	3.565105826004722e-07
	1.200000000000000e+00
	0.000000000000000e+00

 71	1.285600000000000e-11
	3.565105675361335e-07
	1.200000000000000e+00
	0.000000000000000e+00

 72	1.305600000000000e-11
	3.565105515159622e-07
	1.200000000000000e+00
	0.000000000000000e+00

 73	1.325600000000000e-11
	3.565105356874779e-07
	1.200000000000000e+00
	0.000000000000000e+00

 74	1.345600000000000e-11
	3.565105200229249e-07
	1.200000000000000e+00
	0.000000000000000e+00

 75	1.365600000000000e-11
	3.565105038414243e-07
	1.200000000000000e+00
	0.000000000000000e+00

 76	1.385600000000000e-11
	3.565104875619118e-07
	1.200000000000000e+00
	0.000000000000000e+00

 77	1.405600000000000e-11
	3.565104711340805e-07
	1.200000000000000e+00
	0.000000000000000e+00

 78	1.425600000000000e-11
	3.565104548537007e-07
	1.200000000000000e+00
	0.000000000000000e+00

 79	1.445600000000000e-11
	3.565104389922566e-07
	1.200000000000000e+00
	0.000000000000000e+00

 80	1.465600000000000e-11
	3.565104232114771e-07
	1.200000000000000e+00
	0.000000000000000e+00

 81	1.485600000000000e-11
	3.565104074619227e-07
	1.200000000000000e+00
	0.000000000000000e+00

 82	1.505600000000000e-11
	3.565103913472090e-07
	1.200000000000000e+00
	0.000000000000000e+00

 83	1.525600000000000e-11
	3.565103751544327e-07
	1.200000000000000e+00
	0.000000000000000e+00

 84	1.545600000000000e-11
	3.565103587604285e-07
	1.200000000000000e+00
	0.000000000000000e+00

 85	1.565600000000000e-11
	3.565103427602065e-07
	1.200000000000000e+00
	0.000000000000000e+00

 86	1.585600000000000e-11
	3.565103268215672e-07
	1.200000000000000e+00
	0.000000000000000e+00

 87	1.605600000000000e-11
	3.565103107771098e-07
	1.200000000000000e+00
	0.000000000000000e+00

 88	1.625600000000000e-11
	3.565102947777551e-07
	1.200000000000000e+00
	0.000000000000000e+00

 89	1.645600000000000e-11
	3.565102789518729e-07
	1.200000000000000e+00
	0.000000000000000e+00

 90	1.665600000000000e-11
	3.565102628935377e-07
	1.200000000000000e+00
	0.000000000000000e+00

 91	1.685600000000000e-11
	3.565102470763290e-07
	1.200000000000000e+00
	0.000000000000000e+00

 92	1.705600000000000e-11
	3.565102314620830e-07
	1.200000000000000e+00
	0.000000000000000e+00

 93	1.725600000000000e-11
	3.565102156492111e-07
	1.200000000000000e+00
	0.000000000000000e+00

 94	1.745600000000000e-11
	3.565102004608398e-07
	1.200000000000000e+00
	0.000000000000000e+00

 95	1.765600000000000e-11
	3.565101850079230e-07
	1.200000000000000e+00
	0.000000000000000e+00

 96	1.785600000000000e-11
	3.565101699800136e-07
	1.200000000000000e+00
	0.000000000000000e+00

 97	1.805600000000000e-11
	3.565101550006763e-07
	1.200000000000000e+00
	0.000000000000000e+00

 98	1.825600000000000e-11
	3.565101400768503e-07
	1.200000000000000e+00
	0.000000000000000e+00

 99	1.845600000000000e-11
	3.565101253169556e-07
	1.200000000000000e+00
	0.000000000000000e+00

 100	1.865600000000000e-11
	3.565101108268104e-07
	1.200000000000000e+00
	0.000000000000000e+00

 101	1.885600000000000e-11
	3.565100960651810e-07
	1.200000000000000e+00
	0.000000000000000e+00

 102	1.905600000000000e-11
	3.565100819167763e-07
	1.200000000000000e+00
	0.000000000000000e+00

 103	1.925600000000000e-11
	3.565100675922972e-07
	1.200000000000000e+00
	0.000000000000000e+00

 104	1.945600000000000e-11
	3.565100535436391e-07
	1.200000000000000e+00
	0.000000000000000e+00

 105	1.965600000000000e-11
	3.565100397933535e-07
	1.200000000000000e+00
	0.000000000000000e+00

 106	1.985600000000000e-11
	3.565100256631634e-07
	1.200000000000000e+00
	0.000000000000000e+00

 107	2.005600000000000e-11
	3.565100116171074e-07
	1.200000000000000e+00
	0.000000000000000e+00

 108	2.025600000000000e-11
	3.565099983447381e-07
	1.200000000000000e+00
	0.000000000000000e+00

 109	2.045600000000000e-11
	3.565099848659367e-07
	1.200000000000000e+00
	0.000000000000000e+00

 110	2.065600000000000e-11
	3.565099712145303e-07
	1.200000000000000e+00
	0.000000000000000e+00

 111	2.085600000000000e-11
	3.565099580696632e-07
	1.200000000000000e+00
	0.000000000000000e+00

 112	2.105600000000000e-11
	3.565099447227008e-07
	1.200000000000000e+00
	0.000000000000000e+00

 113	2.125600000000000e-11
	3.565099316905906e-07
	1.200000000000000e+00
	0.000000000000000e+00

 114	2.145600000000000e-11
	3.565099189689960e-07
	1.200000000000000e+00
	0.000000000000000e+00

 115	2.165600000000000e-11
	3.565099061511243e-07
	1.200000000000000e+00
	0.000000000000000e+00

 116	2.185600000000000e-11
	3.565098938614758e-07
	1.200000000000000e+00
	0.000000000000000e+00

 117	2.205600000000000e-11
	3.565098815553475e-07
	1.200000000000000e+00
	0.000000000000000e+00

 118	2.225600000000000e-11
	3.565098697175945e-07
	1.200000000000000e+00
	0.000000000000000e+00

 119	2.245600000000000e-11
	3.565098573923842e-07
	1.200000000000000e+00
	0.000000000000000e+00

 120	2.265600000000000e-11
	3.565098460577010e-07
	1.200000000000000e+00
	0.000000000000000e+00

 121	2.285600000000000e-11
	3.565098343665321e-07
	1.200000000000000e+00
	0.000000000000000e+00

 122	2.305600000000000e-11
	3.565098227751098e-07
	1.200000000000000e+00
	0.000000000000000e+00

 123	2.325600000000000e-11
	3.565098115011420e-07
	1.200000000000000e+00
	0.000000000000000e+00

 124	2.345600000000000e-11
	3.565098002800832e-07
	1.200000000000000e+00
	0.000000000000000e+00

 125	2.365600000000000e-11
	3.565097894961747e-07
	1.200000000000000e+00
	0.000000000000000e+00

 126	2.385600000000000e-11
	3.565097789317087e-07
	1.200000000000000e+00
	0.000000000000000e+00

 127	2.405600000000000e-11
	3.565097681850968e-07
	1.200000000000000e+00
	0.000000000000000e+00

 128	2.425600000000000e-11
	3.565097575807322e-07
	1.200000000000000e+00
	0.000000000000000e+00

 129	2.445600000000000e-11
	3.565097472782094e-07
	1.200000000000000e+00
	0.000000000000000e+00

 130	2.465600000000000e-11
	3.565097371673737e-07
	1.200000000000000e+00
	0.000000000000000e+00

 131	2.485600000000000e-11
	3.565097268475037e-07
	1.200000000000000e+00
	0.000000000000000e+00

 132	2.505600000000000e-11
	3.565097169760598e-07
	1.200000000000000e+00
	0.000000000000000e+00

 133	2.525600000000000e-11
	3.565097067784878e-07
	1.200000000000000e+00
	0.000000000000000e+00

 134	2.545600000000000e-11
	3.565096970796489e-07
	1.200000000000000e+00
	0.000000000000000e+00

 135	2.565600000000000e-11
	3.565096873860141e-07
	1.200000000000000e+00
	0.000000000000000e+00

 136	2.585600000000000e-11
	3.565096775978369e-07
	1.200000000000000e+00
	0.000000000000000e+00

 137	2.605600000000000e-11
	3.565096684038024e-07
	1.200000000000000e+00
	0.000000000000000e+00

 138	2.625600000000000e-11
	3.565096592357889e-07
	1.200000000000000e+00
	0.000000000000000e+00

 139	2.645600000000000e-11
	3.565096504832416e-07
	1.200000000000000e+00
	0.000000000000000e+00

 140	2.665600000000000e-11
	3.565096413872190e-07
	1.200000000000000e+00
	0.000000000000000e+00

 141	2.685600000000000e-11
	3.565096324828834e-07
	1.200000000000000e+00
	0.000000000000000e+00

 142	2.705600000000000e-11
	3.565096236462020e-07
	1.200000000000000e+00
	0.000000000000000e+00

 143	2.725600000000000e-11
	3.565096151070257e-07
	1.200000000000000e+00
	0.000000000000000e+00

 144	2.745600000000000e-11
	3.565096065479001e-07
	1.200000000000000e+00
	0.000000000000000e+00

 145	2.765600000000000e-11
	3.565095981587774e-07
	1.200000000000000e+00
	0.000000000000000e+00

 146	2.785600000000000e-11
	3.565095898520540e-07
	1.200000000000000e+00
	0.000000000000000e+00

 147	2.805600000000000e-11
	3.565095821108505e-07
	1.200000000000000e+00
	0.000000000000000e+00

 148	2.825600000000000e-11
	3.565095740053550e-07
	1.200000000000000e+00
	0.000000000000000e+00

 149	2.845600000000000e-11
	3.565095663890516e-07
	1.200000000000000e+00
	0.000000000000000e+00

 150	2.865600000000000e-11
	3.565095591023457e-07
	1.200000000000000e+00
	0.000000000000000e+00

 151	2.885600000000000e-11
	3.565095511330260e-07
	1.200000000000000e+00
	0.000000000000000e+00

 152	2.905600000000000e-11
	3.565095436789192e-07
	1.200000000000000e+00
	0.000000000000000e+00

 153	2.925600000000000e-11
	3.565095361623624e-07
	1.200000000000000e+00
	0.000000000000000e+00

 154	2.945600000000000e-11
	3.565095291193851e-07
	1.200000000000000e+00
	0.000000000000000e+00

 155	2.965600000000000e-11
	3.565095220894182e-07
	1.200000000000000e+00
	0.000000000000000e+00

 156	2.985600000000001e-11
	3.565095150655229e-07
	1.200000000000000e+00
	0.000000000000000e+00

 157	3.005600000000001e-11
	3.565095078317260e-07
	1.200000000000000e+00
	0.000000000000000e+00

 158	3.025600000000001e-11
	3.565095009873745e-07
	1.200000000000000e+00
	0.000000000000000e+00

 159	3.045600000000001e-11
	3.565094941282779e-07
	1.200000000000000e+00
	0.000000000000000e+00

 160	3.065600000000002e-11
	3.565094875796967e-07
	1.200000000000000e+00
	0.000000000000000e+00

 161	3.085600000000002e-11
	3.565094812080574e-07
	1.200000000000000e+00
	0.000000000000000e+00

 162	3.105600000000002e-11
	3.565094748875924e-07
	1.200000000000000e+00
	0.000000000000000e+00

 163	3.125600000000003e-11
	3.565094687267220e-07
	1.200000000000000e+00
	0.000000000000000e+00

 164	3.145600000000003e-11
	3.565094626395773e-07
	1.200000000000000e+00
	0.000000000000000e+00

 165	3.165600000000003e-11
	3.565094562644686e-07
	1.200000000000000e+00
	0.000000000000000e+00

 166	3.185600000000004e-11
	3.565094504141136e-07
	1.200000000000000e+00
	0.000000000000000e+00

 167	3.205600000000004e-11
	3.565094444874309e-07
	1.200000000000000e+00
	0.000000000000000e+00

 168	3.225600000000004e-11
	3.565094383786022e-07
	1.200000000000000e+00
	0.000000000000000e+00

 169	3.245600000000005e-11
	3.565094328014662e-07
	1.200000000000000e+00
	0.000000000000000e+00

 170	3.265600000000005e-11
	3.565094272061156e-07
	1.200000000000000e+00
	0.000000000000000e+00

 171	3.285600000000005e-11
	3.565094219351583e-07
	1.200000000000000e+00
	0.000000000000000e+00

 172	3.305600000000006e-11
	3.565094164265439e-07
	1.200000000000000e+00
	0.000000000000000e+00

 173	3.325600000000006e-11
	3.565094107722128e-07
	1.200000000000000e+00
	0.000000000000000e+00

 174	3.345600000000006e-11
	3.565094060251420e-07
	1.200000000000000e+00
	0.000000000000000e+00

 175	3.365600000000007e-11
	3.565094009927092e-07
	1.200000000000000e+00
	0.000000000000000e+00

 176	3.385600000000007e-11
	3.565093963809468e-07
	1.200000000000000e+00
	0.000000000000000e+00

 177	3.405600000000007e-11
	3.565093919435242e-07
	1.200000000000000e+00
	0.000000000000000e+00

 178	3.425600000000008e-11
	3.565093873864056e-07
	1.200000000000000e+00
	0.000000000000000e+00

 179	3.445600000000008e-11
	3.565093828128071e-07
	1.200000000000000e+00
	0.000000000000000e+00

 180	3.465600000000008e-11
	3.565093781793607e-07
	1.200000000000000e+00
	0.000000000000000e+00

 181	3.485600000000008e-11
	3.565093737367339e-07
	1.200000000000000e+00
	0.000000000000000e+00

 182	3.505600000000009e-11
	3.565093692620147e-07
	1.200000000000000e+00
	0.000000000000000e+00

 183	3.525600000000009e-11
	3.565093648532150e-07
	1.200000000000000e+00
	0.000000000000000e+00

 184	3.545600000000009e-11
	3.565093603984451e-07
	1.200000000000000e+00
	0.000000000000000e+00

 185	3.565600000000010e-11
	3.565093564424082e-07
	1.200000000000000e+00
	0.000000000000000e+00

 186	3.585600000000010e-11
	3.565093519598828e-07
	1.200000000000000e+00
	0.000000000000000e+00

 187	3.605600000000010e-11
	3.565093476959325e-07
	1.200000000000000e+00
	0.000000000000000e+00

 188	3.625600000000011e-11
	3.565093432949390e-07
	1.200000000000000e+00
	0.000000000000000e+00

 189	3.645600000000011e-11
	3.565093394369140e-07
	1.200000000000000e+00
	0.000000000000000e+00

 190	3.665600000000011e-11
	3.565093355754195e-07
	1.200000000000000e+00
	0.000000000000000e+00

 191	3.685600000000012e-11
	3.565093315499937e-07
	1.200000000000000e+00
	0.000000000000000e+00

 192	3.705600000000012e-11
	3.565093276225798e-07
	1.200000000000000e+00
	0.000000000000000e+00

 193	3.725600000000012e-11
	3.565093239232819e-07
	1.200000000000000e+00
	0.000000000000000e+00

 194	3.745600000000013e-11
	3.565093203159245e-07
	1.200000000000000e+00
	0.000000000000000e+00

 195	3.765600000000013e-11
	3.565093167961705e-07
	1.200000000000000e+00
	0.000000000000000e+00

 196	3.785600000000013e-11
	3.565093129329414e-07
	1.200000000000000e+00
	0.000000000000000e+00

 197	3.805600000000014e-11
	3.565093095085972e-07
	1.200000000000000e+00
	0.000000000000000e+00

 198	3.825600000000014e-11
	3.565093061102739e-07
	1.200000000000000e+00
	0.000000000000000e+00

 199	3.845600000000014e-11
	3.565093029652203e-07
	1.200000000000000e+00
	0.000000000000000e+00

 200	3.865600000000015e-11
	3.565092993648017e-07
	1.200000000000000e+00
	0.000000000000000e+00

 201	3.885600000000015e-11
	3.565092961711758e-07
	1.200000000000000e+00
	0.000000000000000e+00

 202	3.905600000000015e-11
	3.565092929497943e-07
	1.200000000000000e+00
	0.000000000000000e+00

 203	3.925600000000016e-11
	3.565092894161626e-07
